
T01B8 000:082 SEGGER J-Link V6.10a Log File (0000ms, 0021ms total)
T01B8 000:082 DLL Compiled: Sep 19 2016 20:07:49 (0000ms, 0021ms total)
T01B8 000:082 Logging started @ 2017-01-23 19:17 (0000ms, 0021ms total)
T01B8 000:082 JLINK_SetWarnOutHandler(...) (0000ms, 0021ms total)
T01B8 000:082 JLINK_OpenEx(...)
Firmware: J-Link ARM-OB STM32 compiled Aug 22 2012 19:52:04
Hardware: V7.00
S/N: 20090928
Feature(s): RDI,FlashDL,FlashBP,JFlash,GDBFullWEBSRV Webserver running on local port 19080 (0008ms, 0029ms total)
T01B8 000:082   returns O.K. (0008ms, 0029ms total)
T01B8 000:090 JLINK_SetErrorOutHandler(...) (0000ms, 0029ms total)
T01B8 000:090 JLINK_ExecCommand("ProjectFile = "H:\BUTTERFLY·É¿Ø-V4.4\USER\JLinkSettings.ini"", ...). C:\Program Files (x86)\SEGGER\JLink_V610a\JLinkDevices.xml evaluated successfully.  returns 0x00 (0109ms, 0138ms total)
T01B8 000:200 JLINK_ExecCommand("Device = STM32F103C8", ...). Device "STM32F103C8" selected.  returns 0x00 (0002ms, 0140ms total)
T01B8 000:202 JLINK_ExecCommand("DisableConnectionTimeout", ...).   returns 0x01 (0000ms, 0140ms total)
T01B8 000:202 JLINK_GetHardwareVersion()  returns 0x11170 (0000ms, 0140ms total)
T01B8 000:202 JLINK_GetDLLVersion()  returns 61001 (0000ms, 0140ms total)
T01B8 000:202 JLINK_GetFirmwareString(...) (0000ms, 0140ms total)
T01B8 000:218 JLINK_GetDLLVersion()  returns 61001 (0000ms, 0140ms total)
T01B8 000:218 JLINK_GetCompileDateTime() (0000ms, 0140ms total)
T01B8 000:220 JLINK_GetFirmwareString(...) (0000ms, 0140ms total)
T01B8 000:222 JLINK_GetHardwareVersion()  returns 0x11170 (0000ms, 0140ms total)
T01B8 000:228 JLINK_TIF_Select(JLINKARM_TIF_SWD)  returns 0x00 (0001ms, 0141ms total)
T01B8 000:229 JLINK_SetSpeed(5000) (0000ms, 0141ms total)
T01B8 000:229 JLINK_GetId() >0x108 TIF>Found SWD-DP with ID 0x1BA01477 >0x0D TIF> >0x28 TIF> >0x0D TIF> >0x28 TIF> >0x0D TIF> >0x28 TIF> >0x0D TIF> >0x28 TIF> >0x0D TIF> >0x21 TIF> >0x0D TIF> >0x28 TIF> >0x0D TIF> >0x28 TIF> >0x0D TIF> >0x28 TIF> >0x0D TIF> >0x21 TIF> >0x0D TIF> >0x21 TIF> >0x0D TIF> >0x28 TIF> >0x0D TIF> >0x21 TIF> >0x0D TIF> >0x21 TIF> >0x0D TIF> >0x28 TIF> >0x0D TIF> >0x28 TIF> >0x0D TIF> >0x28 TIF> >0x0D TIF> >0x21 TIF> >0x0D TIF> >0x21 TIF> >0x0D TIF> >0x28 TIF> >0x0D TIF>
 >0x21 TIF> >0x0D TIF> >0x21 TIF> >0x0D TIF> >0x28 TIF> >0x0D TIF> >0x21 TIF> >0x0D TIF> >0x21 TIF> >0x0D TIF> >0x28 TIF> >0x0D TIF> >0x21 TIF> >0x0D TIF> >0x21 TIF> >0x0D TIF> >0x28 TIF> >0x0D TIF> >0x21 TIF> >0x0D TIF> >0x21 TIF> >0x108 TIF>Found SWD-DP with ID 0x1BA01477 >0x0D TIF> >0x28 TIF> >0x0D TIF> >0x28 TIF> >0x0D TIF> >0x28 TIF> >0x0D TIF> >0x28 TIF> >0x0D TIF> >0x21 TIF> >0x0D TIF> >0x28 TIF> >0x0D TIF> >0x28 TIF> >0x0D TIF> >0x21 TIF> >0x0D TIF> >0x21 TIF> >0x0D TIF> >0x21 TIF>
AP-IDR: 0x14770011, Type: AHB-AP >0x0D TIF> >0x28 TIF> >0x0D TIF> >0x28 TIF> >0x0D TIF> >0x28 TIF> >0x0D TIF> >0x21 TIF> >0x0D TIF> >0x21 TIF> >0x0D TIF> >0x28 TIF> >0x0D TIF> >0x21 TIF> >0x0D TIF> >0x21 TIF>Found Cortex-M3 r1p1, Little endian. -- CPU_ReadMem(4 bytes @ 0xE000EDF0) -- CPU_WriteMem(4 bytes @ 0xE000EDF0) -- CPU_ReadMem(4 bytes @ 0xE0002000)FPUnit: 6 code (BP) slots and 2 literal slots -- CPU_ReadMem(4 bytes @ 0xE000EDFC) -- CPU_WriteMem(4 bytes @ 0xE000EDFC)
 -- CPU_ReadMem(4 bytes @ 0xE0001000) -- CPU_WriteMem(4 bytes @ 0xE0001000) -- CPU_ReadMem(4 bytes @ 0xE000ED88) -- CPU_WriteMem(4 bytes @ 0xE000ED88) -- CPU_ReadMem(4 bytes @ 0xE000ED88) -- CPU_WriteMem(4 bytes @ 0xE000ED88)CoreSight components:ROMTbl 0 @ E00FF000 -- CPU_ReadMem(16 bytes @ 0xE00FF000) -- CPU_ReadMem(16 bytes @ 0xE000EFF0) -- CPU_ReadMem(16 bytes @ 0xE000EFE0)ROMTbl 0 [0]: FFF0F000, CID: B105E00D, PID: 001BB000 SCS -- CPU_ReadMem(16 bytes @ 0xE0001FF0)
 -- CPU_ReadMem(16 bytes @ 0xE0001FE0)ROMTbl 0 [1]: FFF02000, CID: B105E00D, PID: 001BB002 DWT -- CPU_ReadMem(16 bytes @ 0xE0002FF0) -- CPU_ReadMem(16 bytes @ 0xE0002FE0)ROMTbl 0 [2]: FFF03000, CID: B105E00D, PID: 000BB003 FPB -- CPU_ReadMem(16 bytes @ 0xE0000FF0) -- CPU_ReadMem(16 bytes @ 0xE0000FE0)ROMTbl 0 [3]: FFF01000, CID: B105E00D, PID: 001BB001 ITM -- CPU_ReadMem(16 bytes @ 0xE00FF010) -- CPU_ReadMem(16 bytes @ 0xE0040FF0) -- CPU_ReadMem(16 bytes @ 0xE0040FE0)
ROMTbl 0 [4]: FFF41000, CID: B105900D, PID: 001BB923 TPIU-Lite >0x0D TIF> >0x21 TIF>  returns 0x1BA01477 (0049ms, 0190ms total)
T01B8 000:278 JLINK_GetDLLVersion()  returns 61001 (0000ms, 0190ms total)
T01B8 000:278 JLINK_CORE_GetFound()  returns 0x30000FF (0000ms, 0190ms total)
T01B8 000:278 JLINK_GetDebugInfo(0x100) -- Value=0xE00FF000  returns 0x00 (0000ms, 0190ms total)
T01B8 000:281 JLINK_ReadMem (0xE00FF000, 0x0020 Bytes, ...) -- CPU is running -- CPU_ReadMem(32 bytes @ 0xE00FF000) - Data: 03 F0 F0 FF 03 20 F0 FF 03 30 F0 FF 03 10 F0 FF ...  returns 0x00 (0000ms, 0190ms total)
T01B8 000:281 JLINK_ReadMem (0xE000EFF0, 0x0010 Bytes, ...) -- CPU is running -- CPU_ReadMem(16 bytes @ 0xE000EFF0) - Data: 0D 00 00 00 E0 00 00 00 05 00 00 00 B1 00 00 00  returns 0x00 (0001ms, 0191ms total)
T01B8 000:282 JLINK_ReadMem (0xE000EFD0, 0x0020 Bytes, ...) -- CPU is running -- CPU_ReadMem(32 bytes @ 0xE000EFD0) - Data: 04 00 00 00 00 00 00 00 00 00 00 00 00 00 00 00 ...  returns 0x00 (0001ms, 0192ms total)
T01B8 000:283 JLINK_ReadMem (0xE0001FF0, 0x0010 Bytes, ...) -- CPU is running -- CPU_ReadMem(16 bytes @ 0xE0001FF0) - Data: 0D 00 00 00 E0 00 00 00 05 00 00 00 B1 00 00 00  returns 0x00 (0000ms, 0192ms total)
T01B8 000:283 JLINK_ReadMem (0xE0001FD0, 0x0020 Bytes, ...) -- CPU is running -- CPU_ReadMem(32 bytes @ 0xE0001FD0) - Data: 04 00 00 00 00 00 00 00 00 00 00 00 00 00 00 00 ...  returns 0x00 (0001ms, 0193ms total)
T01B8 000:284 JLINK_ReadMem (0xE0002FF0, 0x0010 Bytes, ...) -- CPU is running -- CPU_ReadMem(16 bytes @ 0xE0002FF0) - Data: 0D 00 00 00 E0 00 00 00 05 00 00 00 B1 00 00 00  returns 0x00 (0000ms, 0193ms total)
T01B8 000:284 JLINK_ReadMem (0xE0002FD0, 0x0020 Bytes, ...) -- CPU is running -- CPU_ReadMem(32 bytes @ 0xE0002FD0) - Data: 04 00 00 00 00 00 00 00 00 00 00 00 00 00 00 00 ...  returns 0x00 (0001ms, 0194ms total)
T01B8 000:285 JLINK_ReadMem (0xE0000FF0, 0x0010 Bytes, ...) -- CPU is running -- CPU_ReadMem(16 bytes @ 0xE0000FF0) - Data: 0D 00 00 00 E0 00 00 00 05 00 00 00 B1 00 00 00  returns 0x00 (0001ms, 0195ms total)
T01B8 000:286 JLINK_ReadMem (0xE0000FD0, 0x0020 Bytes, ...) -- CPU is running -- CPU_ReadMem(32 bytes @ 0xE0000FD0) - Data: 04 00 00 00 00 00 00 00 00 00 00 00 00 00 00 00 ...  returns 0x00 (0000ms, 0195ms total)
T01B8 000:286 JLINK_ReadMem (0xE0040FF0, 0x0010 Bytes, ...) -- CPU is running -- CPU_ReadMem(16 bytes @ 0xE0040FF0) - Data: 0D 00 00 00 90 00 00 00 05 00 00 00 B1 00 00 00  returns 0x00 (0001ms, 0196ms total)
T01B8 000:287 JLINK_ReadMem (0xE0040FD0, 0x0020 Bytes, ...) -- CPU is running -- CPU_ReadMem(32 bytes @ 0xE0040FD0) - Data: 04 00 00 00 00 00 00 00 00 00 00 00 00 00 00 00 ...  returns 0x00 (0001ms, 0197ms total)
T01B8 000:288 JLINK_ReadMemU32(0xE000ED00, 0x0001 Items, ...) -- CPU is running -- CPU_ReadMem(4 bytes @ 0xE000ED00) - Data: 31 C2 1F 41  returns 0x01 (0000ms, 0197ms total)
T01B8 000:288 JLINK_SetResetType(JLINKARM_RESET_TYPE_NORMAL)  returns JLINKARM_RESET_TYPE_NORMAL (0000ms, 0197ms total)
T01B8 000:288 JLINK_Reset() -- CPU is running -- CPU_WriteMem(4 bytes @ 0xE000EDF0) -- CPU is running -- CPU_WriteMem(4 bytes @ 0xE000EDFC) >0x35 TIF> -- CPU is running -- CPU_WriteMem(4 bytes @ 0xE000ED0C) -- CPU is running -- CPU_ReadMem(4 bytes @ 0xE000EDF0) -- CPU is running -- CPU_ReadMem(4 bytes @ 0xE000EDF0) -- CPU is running -- CPU_WriteMem(4 bytes @ 0xE000EDF0) -- CPU is running -- CPU_WriteMem(4 bytes @ 0xE000EDFC) -- CPU is running -- CPU_ReadMem(4 bytes @ 0xE000EDF0)
 -- CPU_WriteMem(4 bytes @ 0xE0002000) -- CPU_ReadMem(4 bytes @ 0xE000EDFC) -- CPU_ReadMem(4 bytes @ 0xE0001000) (0017ms, 0214ms total)
T01B8 000:306 JLINK_Halt()  returns 0x00 (0000ms, 0214ms total)
T01B8 000:306 JLINK_IsHalted()  returns TRUE (0000ms, 0214ms total)
T01B8 000:306 JLINK_ReadMemU32(0xE000EDF0, 0x0001 Items, ...) -- CPU_ReadMem(4 bytes @ 0xE000EDF0) - Data: 03 00 03 00  returns 0x01 (0000ms, 0214ms total)
T01B8 000:306 JLINK_WriteU32(0xE000EDF0, 0xA05F0003) -- CPU_WriteMem(4 bytes @ 0xE000EDF0)  returns 0x00 (0001ms, 0215ms total)
T01B8 000:307 JLINK_WriteU32(0xE000EDFC, 0x01000000) -- CPU_WriteMem(4 bytes @ 0xE000EDFC)  returns 0x00 (0000ms, 0215ms total)
T01B8 000:315 JLINK_GetHWStatus(...)  returns 0x00 (0000ms, 0215ms total)
T01B8 000:319 JLINK_GetNumBPUnits(Type = 0xFFFFFF00)  returns 0x06 (0000ms, 0215ms total)
T01B8 000:319 JLINK_GetNumBPUnits(Type = 0xF0)  returns 0x2000 (0000ms, 0215ms total)
T01B8 000:319 JLINK_GetNumWPUnits()  returns 0x04 (0000ms, 0215ms total)
T01B8 000:323 JLINK_GetSpeed()  returns 0xFA0 (0000ms, 0215ms total)
T01B8 000:328 JLINK_ReadMemU32(0xE000E004, 0x0001 Items, ...) -- CPU_ReadMem(4 bytes @ 0xE000E004) - Data: 01 00 00 00  returns 0x01 (0000ms, 0215ms total)
T01B8 000:328 JLINK_ReadMemU32(0xE000E004, 0x0001 Items, ...) -- CPU_ReadMem(4 bytes @ 0xE000E004) - Data: 01 00 00 00  returns 0x01 (0001ms, 0216ms total)
T01B8 000:329 JLINK_WriteMem(0xE0001000, 0x001C Bytes, ...) - Data: 01 00 00 00 00 00 00 00 00 00 00 00 00 00 00 00 ... -- CPU_WriteMem(28 bytes @ 0xE0001000)  returns 0x1C (0001ms, 0217ms total)
T01B8 000:330 JLINK_ReadMem (0xE0001000, 0x001C Bytes, ...) -- CPU_ReadMem(28 bytes @ 0xE0001000) - Data: 01 00 00 40 00 00 00 00 00 00 00 00 00 00 00 00 ...  returns 0x00 (0000ms, 0217ms total)
T01B8 000:330 JLINK_Halt()  returns 0x00 (0000ms, 0217ms total)
T01B8 000:330 JLINK_IsHalted()  returns TRUE (0000ms, 0217ms total)
T01B8 000:332 JLINK_WriteMem(0x20000000, 0x0164 Bytes, ...) - Data: 00 BE 0A E0 0D 78 2D 06 68 40 08 24 40 00 00 D3 ... -- CPU_WriteMem(356 bytes @ 0x20000000)  returns 0x164 (0005ms, 0222ms total)
T01B8 000:337 JLINK_WriteReg(R0, 0x08000000)  returns 0x00 (0000ms, 0222ms total)
T01B8 000:337 JLINK_WriteReg(R1, 0x044AA200)  returns 0x00 (0000ms, 0222ms total)
T01B8 000:337 JLINK_WriteReg(R2, 0x00000001)  returns 0x00 (0000ms, 0222ms total)
T01B8 000:337 JLINK_WriteReg(R3, 0x00000000)  returns 0x00 (0000ms, 0222ms total)
T01B8 000:337 JLINK_WriteReg(R4, 0x00000000)  returns 0x00 (0000ms, 0222ms total)
T01B8 000:337 JLINK_WriteReg(R5, 0x00000000)  returns 0x00 (0000ms, 0222ms total)
T01B8 000:337 JLINK_WriteReg(R6, 0x00000000)  returns 0x00 (0000ms, 0222ms total)
T01B8 000:337 JLINK_WriteReg(R7, 0x00000000)  returns 0x00 (0000ms, 0222ms total)
T01B8 000:337 JLINK_WriteReg(R8, 0x00000000)  returns 0x00 (0000ms, 0222ms total)
T01B8 000:337 JLINK_WriteReg(R9, 0x20000160)  returns 0x00 (0000ms, 0222ms total)
T01B8 000:337 JLINK_WriteReg(R10, 0x00000000)  returns 0x00 (0000ms, 0222ms total)
T01B8 000:337 JLINK_WriteReg(R11, 0x00000000)  returns 0x00 (0000ms, 0222ms total)
T01B8 000:337 JLINK_WriteReg(R12, 0x00000000)  returns 0x00 (0000ms, 0222ms total)
T01B8 000:337 JLINK_WriteReg(R13 (SP), 0x20001000)  returns 0x00 (0000ms, 0222ms total)
T01B8 000:337 JLINK_WriteReg(R14, 0x20000001)  returns 0x00 (0000ms, 0222ms total)
T01B8 000:337 JLINK_WriteReg(R15 (PC), 0x20000038)  returns 0x00 (0000ms, 0222ms total)
T01B8 000:337 JLINK_WriteReg(XPSR, 0x01000000)  returns 0x00 (0000ms, 0222ms total)
T01B8 000:337 JLINK_WriteReg(MSP, 0x20001000)  returns 0x00 (0000ms, 0222ms total)
T01B8 000:337 JLINK_WriteReg(PSP, 0x20001000)  returns 0x00 (0000ms, 0222ms total)
T01B8 000:337 JLINK_WriteReg(CFBP, 0x00000000)  returns 0x00 (0000ms, 0222ms total)
T01B8 000:337 JLINK_SetBPEx(Addr = 0x20000000, Type = 0xFFFFFFF2) -- CPU_ReadMem(2 bytes @ 0x20000000)  returns 0x00000001 (0001ms, 0223ms total)
T01B8 000:338 JLINK_Go() -- CPU_WriteMem(2 bytes @ 0x20000000) -- CPU_ReadMem(4 bytes @ 0xE0001000) -- CPU_WriteMem(4 bytes @ 0xE0002008) -- CPU_WriteMem(4 bytes @ 0xE000200C) -- CPU_WriteMem(4 bytes @ 0xE0002010) -- CPU_WriteMem(4 bytes @ 0xE0002014) -- CPU_WriteMem(4 bytes @ 0xE0002018) -- CPU_WriteMem(4 bytes @ 0xE000201C) -- CPU_WriteMem(4 bytes @ 0xE0001004) (0007ms, 0230ms total)
T01B8 000:345 JLINK_IsHalted() -- CPU_ReadMem(2 bytes @ 0x20000000)  returns TRUE (0003ms, 0233ms total)
T01B8 000:348 JLINK_ReadReg(R15 (PC))  returns 0x20000000 (0000ms, 0230ms total)
T01B8 000:348 JLINK_ClrBPEx(BPHandle = 0x00000001)  returns 0x00 (0000ms, 0230ms total)
T01B8 000:348 JLINK_ReadReg(R0)  returns 0x00000000 (0000ms, 0230ms total)
T01B8 000:349 JLINK_WriteReg(R0, 0x08000000)  returns 0x00 (0000ms, 0230ms total)
T01B8 000:349 JLINK_WriteReg(R1, 0x044AA200)  returns 0x00 (0000ms, 0230ms total)
T01B8 000:349 JLINK_WriteReg(R2, 0x00000001)  returns 0x00 (0000ms, 0230ms total)
T01B8 000:349 JLINK_WriteReg(R3, 0x00000000)  returns 0x00 (0000ms, 0230ms total)
T01B8 000:349 JLINK_WriteReg(R4, 0x00000000)  returns 0x00 (0000ms, 0230ms total)
T01B8 000:349 JLINK_WriteReg(R5, 0x00000000)  returns 0x00 (0000ms, 0230ms total)
T01B8 000:349 JLINK_WriteReg(R6, 0x00000000)  returns 0x00 (0000ms, 0230ms total)
T01B8 000:349 JLINK_WriteReg(R7, 0x00000000)  returns 0x00 (0000ms, 0230ms total)
T01B8 000:349 JLINK_WriteReg(R8, 0x00000000)  returns 0x00 (0000ms, 0230ms total)
T01B8 000:349 JLINK_WriteReg(R9, 0x20000160)  returns 0x00 (0000ms, 0230ms total)
T01B8 000:349 JLINK_WriteReg(R10, 0x00000000)  returns 0x00 (0000ms, 0230ms total)
T01B8 000:349 JLINK_WriteReg(R11, 0x00000000)  returns 0x00 (0000ms, 0230ms total)
T01B8 000:349 JLINK_WriteReg(R12, 0x00000000)  returns 0x00 (0000ms, 0230ms total)
T01B8 000:349 JLINK_WriteReg(R13 (SP), 0x20001000)  returns 0x00 (0000ms, 0230ms total)
T01B8 000:349 JLINK_WriteReg(R14, 0x20000001)  returns 0x00 (0000ms, 0230ms total)
T01B8 000:349 JLINK_WriteReg(R15 (PC), 0x2000007C)  returns 0x00 (0000ms, 0230ms total)
T01B8 000:349 JLINK_WriteReg(XPSR, 0x01000000)  returns 0x00 (0000ms, 0230ms total)
T01B8 000:349 JLINK_WriteReg(MSP, 0x20001000)  returns 0x00 (0000ms, 0230ms total)
T01B8 000:349 JLINK_WriteReg(PSP, 0x20001000)  returns 0x00 (0000ms, 0230ms total)
T01B8 000:349 JLINK_WriteReg(CFBP, 0x00000000)  returns 0x00 (0000ms, 0230ms total)
T01B8 000:349 JLINK_SetBPEx(Addr = 0x20000000, Type = 0xFFFFFFF2)  returns 0x00000002 (0000ms, 0230ms total)
T01B8 000:349 JLINK_Go() -- CPU_ReadMem(4 bytes @ 0xE0001000) (0002ms, 0232ms total)
T01B8 000:351 JLINK_IsHalted()  returns FALSE (0000ms, 0232ms total)
T01B8 000:378 JLINK_IsHalted() -- CPU_ReadMem(2 bytes @ 0x20000000)  returns TRUE (0003ms, 0235ms total)
T01B8 000:381 JLINK_ReadReg(R15 (PC))  returns 0x20000000 (0000ms, 0232ms total)
T01B8 000:381 JLINK_ClrBPEx(BPHandle = 0x00000002)  returns 0x00 (0000ms, 0232ms total)
T01B8 000:381 JLINK_ReadReg(R0)  returns 0x00000000 (0000ms, 0232ms total)
T01B8 000:434 JLINK_WriteReg(R0, 0x00000001)  returns 0x00 (0000ms, 0232ms total)
T01B8 000:434 JLINK_WriteReg(R1, 0x044AA200)  returns 0x00 (0000ms, 0232ms total)
T01B8 000:434 JLINK_WriteReg(R2, 0x00000001)  returns 0x00 (0000ms, 0232ms total)
T01B8 000:434 JLINK_WriteReg(R3, 0x00000000)  returns 0x00 (0000ms, 0232ms total)
T01B8 000:434 JLINK_WriteReg(R4, 0x00000000)  returns 0x00 (0000ms, 0232ms total)
T01B8 000:434 JLINK_WriteReg(R5, 0x00000000)  returns 0x00 (0000ms, 0232ms total)
T01B8 000:434 JLINK_WriteReg(R6, 0x00000000)  returns 0x00 (0000ms, 0232ms total)
T01B8 000:434 JLINK_WriteReg(R7, 0x00000000)  returns 0x00 (0000ms, 0232ms total)
T01B8 000:434 JLINK_WriteReg(R8, 0x00000000)  returns 0x00 (0000ms, 0232ms total)
T01B8 000:434 JLINK_WriteReg(R9, 0x20000160)  returns 0x00 (0000ms, 0232ms total)
T01B8 000:434 JLINK_WriteReg(R10, 0x00000000)  returns 0x00 (0000ms, 0232ms total)
T01B8 000:434 JLINK_WriteReg(R11, 0x00000000)  returns 0x00 (0000ms, 0232ms total)
T01B8 000:434 JLINK_WriteReg(R12, 0x00000000)  returns 0x00 (0000ms, 0232ms total)
T01B8 000:434 JLINK_WriteReg(R13 (SP), 0x20001000)  returns 0x00 (0000ms, 0232ms total)
T01B8 000:434 JLINK_WriteReg(R14, 0x20000001)  returns 0x00 (0000ms, 0232ms total)
T01B8 000:434 JLINK_WriteReg(R15 (PC), 0x2000006A)  returns 0x00 (0000ms, 0232ms total)
T01B8 000:434 JLINK_WriteReg(XPSR, 0x01000000)  returns 0x00 (0000ms, 0232ms total)
T01B8 000:434 JLINK_WriteReg(MSP, 0x20001000)  returns 0x00 (0000ms, 0232ms total)
T01B8 000:435 JLINK_WriteReg(PSP, 0x20001000)  returns 0x00 (0000ms, 0233ms total)
T01B8 000:435 JLINK_WriteReg(CFBP, 0x00000000)  returns 0x00 (0000ms, 0233ms total)
T01B8 000:435 JLINK_SetBPEx(Addr = 0x20000000, Type = 0xFFFFFFF2)  returns 0x00000003 (0000ms, 0233ms total)
T01B8 000:435 JLINK_Go() -- CPU_ReadMem(4 bytes @ 0xE0001000) (0002ms, 0235ms total)
T01B8 000:437 JLINK_IsHalted() -- CPU_ReadMem(2 bytes @ 0x20000000)  returns TRUE (0003ms, 0238ms total)
T01B8 000:440 JLINK_ReadReg(R15 (PC))  returns 0x20000000 (0000ms, 0235ms total)
T01B8 000:440 JLINK_ClrBPEx(BPHandle = 0x00000003)  returns 0x00 (0000ms, 0235ms total)
T01B8 000:440 JLINK_ReadReg(R0)  returns 0x00000000 (0000ms, 0235ms total)
T01B8 000:444 JLINK_WriteMem(0x20000000, 0x0164 Bytes, ...) - Data: 00 BE 0A E0 0D 78 2D 06 68 40 08 24 40 00 00 D3 ... -- CPU_WriteMem(356 bytes @ 0x20000000)  returns 0x164 (0004ms, 0239ms total)
T01B8 000:448 JLINK_WriteReg(R0, 0x08000000)  returns 0x00 (0001ms, 0240ms total)
T01B8 000:449 JLINK_WriteReg(R1, 0x044AA200)  returns 0x00 (0000ms, 0240ms total)
T01B8 000:449 JLINK_WriteReg(R2, 0x00000002)  returns 0x00 (0000ms, 0240ms total)
T01B8 000:449 JLINK_WriteReg(R3, 0x00000000)  returns 0x00 (0000ms, 0240ms total)
T01B8 000:449 JLINK_WriteReg(R4, 0x00000000)  returns 0x00 (0000ms, 0240ms total)
T01B8 000:449 JLINK_WriteReg(R5, 0x00000000)  returns 0x00 (0000ms, 0240ms total)
T01B8 000:449 JLINK_WriteReg(R6, 0x00000000)  returns 0x00 (0000ms, 0240ms total)
T01B8 000:449 JLINK_WriteReg(R7, 0x00000000)  returns 0x00 (0000ms, 0240ms total)
T01B8 000:449 JLINK_WriteReg(R8, 0x00000000)  returns 0x00 (0000ms, 0240ms total)
T01B8 000:449 JLINK_WriteReg(R9, 0x20000160)  returns 0x00 (0000ms, 0240ms total)
T01B8 000:449 JLINK_WriteReg(R10, 0x00000000)  returns 0x00 (0000ms, 0240ms total)
T01B8 000:449 JLINK_WriteReg(R11, 0x00000000)  returns 0x00 (0000ms, 0240ms total)
T01B8 000:449 JLINK_WriteReg(R12, 0x00000000)  returns 0x00 (0000ms, 0240ms total)
T01B8 000:449 JLINK_WriteReg(R13 (SP), 0x20001000)  returns 0x00 (0000ms, 0240ms total)
T01B8 000:449 JLINK_WriteReg(R14, 0x20000001)  returns 0x00 (0000ms, 0240ms total)
T01B8 000:449 JLINK_WriteReg(R15 (PC), 0x20000038)  returns 0x00 (0000ms, 0240ms total)
T01B8 000:449 JLINK_WriteReg(XPSR, 0x01000000)  returns 0x00 (0000ms, 0240ms total)
T01B8 000:449 JLINK_WriteReg(MSP, 0x20001000)  returns 0x00 (0000ms, 0240ms total)
T01B8 000:449 JLINK_WriteReg(PSP, 0x20001000)  returns 0x00 (0000ms, 0240ms total)
T01B8 000:449 JLINK_WriteReg(CFBP, 0x00000000)  returns 0x00 (0000ms, 0240ms total)
T01B8 000:449 JLINK_SetBPEx(Addr = 0x20000000, Type = 0xFFFFFFF2) -- CPU_ReadMem(2 bytes @ 0x20000000)  returns 0x00000004 (0000ms, 0240ms total)
T01B8 000:449 JLINK_Go() -- CPU_WriteMem(2 bytes @ 0x20000000) -- CPU_ReadMem(4 bytes @ 0xE0001000) (0003ms, 0243ms total)
T01B8 000:452 JLINK_IsHalted() -- CPU_ReadMem(2 bytes @ 0x20000000)  returns TRUE (0004ms, 0247ms total)
T01B8 000:456 JLINK_ReadReg(R15 (PC))  returns 0x20000000 (0000ms, 0243ms total)
T01B8 000:456 JLINK_ClrBPEx(BPHandle = 0x00000004)  returns 0x00 (0000ms, 0243ms total)
T01B8 000:456 JLINK_ReadReg(R0)  returns 0x00000000 (0000ms, 0243ms total)
T01B8 000:456 JLINK_WriteMem(0x20000164, 0x0400 Bytes, ...) - Data: 68 09 00 20 ED 4A 00 08 BB 0E 00 08 BD 0E 00 08 ... -- CPU_WriteMem(1024 bytes @ 0x20000164)  returns 0x400 (0012ms, 0255ms total)
T01B8 000:468 JLINK_WriteReg(R0, 0x08000000)  returns 0x00 (0000ms, 0255ms total)
T01B8 000:468 JLINK_WriteReg(R1, 0x00000400)  returns 0x00 (0000ms, 0255ms total)
T01B8 000:468 JLINK_WriteReg(R2, 0x20000164)  returns 0x00 (0000ms, 0255ms total)
T01B8 000:468 JLINK_WriteReg(R3, 0x00000000)  returns 0x00 (0000ms, 0255ms total)
T01B8 000:468 JLINK_WriteReg(R4, 0x00000000)  returns 0x00 (0000ms, 0255ms total)
T01B8 000:468 JLINK_WriteReg(R5, 0x00000000)  returns 0x00 (0000ms, 0255ms total)
T01B8 000:468 JLINK_WriteReg(R6, 0x00000000)  returns 0x00 (0000ms, 0255ms total)
T01B8 000:468 JLINK_WriteReg(R7, 0x00000000)  returns 0x00 (0000ms, 0255ms total)
T01B8 000:468 JLINK_WriteReg(R8, 0x00000000)  returns 0x00 (0000ms, 0255ms total)
T01B8 000:468 JLINK_WriteReg(R9, 0x20000160)  returns 0x00 (0000ms, 0255ms total)
T01B8 000:468 JLINK_WriteReg(R10, 0x00000000)  returns 0x00 (0000ms, 0255ms total)
T01B8 000:468 JLINK_WriteReg(R11, 0x00000000)  returns 0x00 (0000ms, 0255ms total)
T01B8 000:468 JLINK_WriteReg(R12, 0x00000000)  returns 0x00 (0000ms, 0255ms total)
T01B8 000:468 JLINK_WriteReg(R13 (SP), 0x20001000)  returns 0x00 (0000ms, 0255ms total)
T01B8 000:468 JLINK_WriteReg(R14, 0x20000001)  returns 0x00 (0000ms, 0255ms total)
T01B8 000:468 JLINK_WriteReg(R15 (PC), 0x200000F4)  returns 0x00 (0000ms, 0255ms total)
T01B8 000:468 JLINK_WriteReg(XPSR, 0x01000000)  returns 0x00 (0000ms, 0255ms total)
T01B8 000:468 JLINK_WriteReg(MSP, 0x20001000)  returns 0x00 (0000ms, 0255ms total)
T01B8 000:468 JLINK_WriteReg(PSP, 0x20001000)  returns 0x00 (0000ms, 0255ms total)
T01B8 000:468 JLINK_WriteReg(CFBP, 0x00000000)  returns 0x00 (0000ms, 0255ms total)
T01B8 000:468 JLINK_SetBPEx(Addr = 0x20000000, Type = 0xFFFFFFF2)  returns 0x00000005 (0000ms, 0255ms total)
T01B8 000:468 JLINK_Go() -- CPU_ReadMem(4 bytes @ 0xE0001000) (0002ms, 0257ms total)
T01B8 000:470 JLINK_IsHalted()  returns FALSE (0001ms, 0258ms total)
T01B8 000:476 JLINK_IsHalted()  returns FALSE (0000ms, 0257ms total)
T01B8 000:478 JLINK_IsHalted()  returns FALSE (0000ms, 0257ms total)
T01B8 000:481 JLINK_IsHalted()  returns FALSE (0000ms, 0257ms total)
T01B8 000:483 JLINK_IsHalted()  returns FALSE (0000ms, 0257ms total)
T01B8 000:485 JLINK_IsHalted()  returns FALSE (0000ms, 0257ms total)
T01B8 000:490 JLINK_IsHalted()  returns FALSE (0000ms, 0257ms total)
T01B8 000:492 JLINK_IsHalted()  returns FALSE (0000ms, 0257ms total)
T01B8 000:494 JLINK_IsHalted()  returns FALSE (0000ms, 0257ms total)
T01B8 000:496 JLINK_IsHalted()  returns FALSE (0000ms, 0257ms total)
T01B8 000:498 JLINK_IsHalted()  returns FALSE (0000ms, 0257ms total)
T01B8 000:502 JLINK_IsHalted() -- CPU_ReadMem(2 bytes @ 0x20000000)  returns TRUE (0003ms, 0260ms total)
T01B8 000:505 JLINK_ReadReg(R15 (PC))  returns 0x20000000 (0000ms, 0257ms total)
T01B8 000:505 JLINK_ClrBPEx(BPHandle = 0x00000005)  returns 0x00 (0000ms, 0257ms total)
T01B8 000:505 JLINK_ReadReg(R0)  returns 0x00000000 (0000ms, 0257ms total)
T01B8 000:506 JLINK_WriteMem(0x20000164, 0x0400 Bytes, ...) - Data: 32 4F 4F F4 40 76 31 46 38 46 04 F0 22 FD A8 46 ... -- CPU_WriteMem(1024 bytes @ 0x20000164)  returns 0x400 (0012ms, 0269ms total)
T01B8 000:518 JLINK_WriteReg(R0, 0x08000400)  returns 0x00 (0000ms, 0269ms total)
T01B8 000:518 JLINK_WriteReg(R1, 0x00000400)  returns 0x00 (0000ms, 0269ms total)
T01B8 000:518 JLINK_WriteReg(R2, 0x20000164)  returns 0x00 (0000ms, 0269ms total)
T01B8 000:518 JLINK_WriteReg(R3, 0x00000000)  returns 0x00 (0000ms, 0269ms total)
T01B8 000:518 JLINK_WriteReg(R4, 0x00000000)  returns 0x00 (0000ms, 0269ms total)
T01B8 000:518 JLINK_WriteReg(R5, 0x00000000)  returns 0x00 (0000ms, 0269ms total)
T01B8 000:518 JLINK_WriteReg(R6, 0x00000000)  returns 0x00 (0000ms, 0269ms total)
T01B8 000:518 JLINK_WriteReg(R7, 0x00000000)  returns 0x00 (0000ms, 0269ms total)
T01B8 000:518 JLINK_WriteReg(R8, 0x00000000)  returns 0x00 (0000ms, 0269ms total)
T01B8 000:518 JLINK_WriteReg(R9, 0x20000160)  returns 0x00 (0000ms, 0269ms total)
T01B8 000:518 JLINK_WriteReg(R10, 0x00000000)  returns 0x00 (0000ms, 0269ms total)
T01B8 000:518 JLINK_WriteReg(R11, 0x00000000)  returns 0x00 (0000ms, 0269ms total)
T01B8 000:518 JLINK_WriteReg(R12, 0x00000000)  returns 0x00 (0000ms, 0269ms total)
T01B8 000:518 JLINK_WriteReg(R13 (SP), 0x20001000)  returns 0x00 (0000ms, 0269ms total)
T01B8 000:518 JLINK_WriteReg(R14, 0x20000001)  returns 0x00 (0000ms, 0269ms total)
T01B8 000:518 JLINK_WriteReg(R15 (PC), 0x200000F4)  returns 0x00 (0000ms, 0269ms total)
T01B8 000:518 JLINK_WriteReg(XPSR, 0x01000000)  returns 0x00 (0000ms, 0269ms total)
T01B8 000:518 JLINK_WriteReg(MSP, 0x20001000)  returns 0x00 (0000ms, 0269ms total)
T01B8 000:518 JLINK_WriteReg(PSP, 0x20001000)  returns 0x00 (0000ms, 0269ms total)
T01B8 000:518 JLINK_WriteReg(CFBP, 0x00000000)  returns 0x00 (0000ms, 0269ms total)
T01B8 000:518 JLINK_SetBPEx(Addr = 0x20000000, Type = 0xFFFFFFF2)  returns 0x00000006 (0000ms, 0269ms total)
T01B8 000:518 JLINK_Go() -- CPU_ReadMem(4 bytes @ 0xE0001000) (0002ms, 0271ms total)
T01B8 000:520 JLINK_IsHalted()  returns FALSE (0000ms, 0271ms total)
T01B8 000:524 JLINK_IsHalted()  returns FALSE (0000ms, 0271ms total)
T01B8 000:526 JLINK_IsHalted()  returns FALSE (0000ms, 0271ms total)
T01B8 000:529 JLINK_IsHalted()  returns FALSE (0000ms, 0271ms total)
T01B8 000:534 JLINK_IsHalted()  returns FALSE (0000ms, 0271ms total)
T01B8 000:536 JLINK_IsHalted()  returns FALSE (0000ms, 0271ms total)
T01B8 000:538 JLINK_IsHalted()  returns FALSE (0000ms, 0271ms total)
T01B8 000:540 JLINK_IsHalted()  returns FALSE (0000ms, 0271ms total)
T01B8 000:542 JLINK_IsHalted()  returns FALSE (0000ms, 0271ms total)
T01B8 000:545 JLINK_IsHalted()  returns FALSE (0000ms, 0271ms total)
T01B8 000:548 JLINK_IsHalted()  returns FALSE (0000ms, 0271ms total)
T01B8 000:550 JLINK_IsHalted()  returns FALSE (0000ms, 0271ms total)
T01B8 000:552 JLINK_IsHalted() -- CPU_ReadMem(2 bytes @ 0x20000000)  returns TRUE (0003ms, 0274ms total)
T01B8 000:555 JLINK_ReadReg(R15 (PC))  returns 0x20000000 (0000ms, 0271ms total)
T01B8 000:555 JLINK_ClrBPEx(BPHandle = 0x00000006)  returns 0x00 (0000ms, 0271ms total)
T01B8 000:555 JLINK_ReadReg(R0)  returns 0x00000000 (0000ms, 0271ms total)
T01B8 000:556 JLINK_WriteMem(0x20000164, 0x0400 Bytes, ...) - Data: 14 01 00 28 F3 D1 C5 F8 98 01 70 BD 70 B5 C4 4C ... -- CPU_WriteMem(1024 bytes @ 0x20000164)  returns 0x400 (0012ms, 0283ms total)
T01B8 000:568 JLINK_WriteReg(R0, 0x08000800)  returns 0x00 (0000ms, 0283ms total)
T01B8 000:568 JLINK_WriteReg(R1, 0x00000400)  returns 0x00 (0000ms, 0283ms total)
T01B8 000:568 JLINK_WriteReg(R2, 0x20000164)  returns 0x00 (0000ms, 0283ms total)
T01B8 000:568 JLINK_WriteReg(R3, 0x00000000)  returns 0x00 (0000ms, 0283ms total)
T01B8 000:568 JLINK_WriteReg(R4, 0x00000000)  returns 0x00 (0000ms, 0283ms total)
T01B8 000:568 JLINK_WriteReg(R5, 0x00000000)  returns 0x00 (0000ms, 0283ms total)
T01B8 000:568 JLINK_WriteReg(R6, 0x00000000)  returns 0x00 (0000ms, 0283ms total)
T01B8 000:568 JLINK_WriteReg(R7, 0x00000000)  returns 0x00 (0000ms, 0283ms total)
T01B8 000:568 JLINK_WriteReg(R8, 0x00000000)  returns 0x00 (0000ms, 0283ms total)
T01B8 000:568 JLINK_WriteReg(R9, 0x20000160)  returns 0x00 (0000ms, 0283ms total)
T01B8 000:568 JLINK_WriteReg(R10, 0x00000000)  returns 0x00 (0000ms, 0283ms total)
T01B8 000:568 JLINK_WriteReg(R11, 0x00000000)  returns 0x00 (0000ms, 0283ms total)
T01B8 000:568 JLINK_WriteReg(R12, 0x00000000)  returns 0x00 (0000ms, 0283ms total)
T01B8 000:568 JLINK_WriteReg(R13 (SP), 0x20001000)  returns 0x00 (0000ms, 0283ms total)
T01B8 000:568 JLINK_WriteReg(R14, 0x20000001)  returns 0x00 (0000ms, 0283ms total)
T01B8 000:568 JLINK_WriteReg(R15 (PC), 0x200000F4)  returns 0x00 (0000ms, 0283ms total)
T01B8 000:568 JLINK_WriteReg(XPSR, 0x01000000)  returns 0x00 (0000ms, 0283ms total)
T01B8 000:568 JLINK_WriteReg(MSP, 0x20001000)  returns 0x00 (0000ms, 0283ms total)
T01B8 000:568 JLINK_WriteReg(PSP, 0x20001000)  returns 0x00 (0000ms, 0283ms total)
T01B8 000:568 JLINK_WriteReg(CFBP, 0x00000000)  returns 0x00 (0000ms, 0283ms total)
T01B8 000:568 JLINK_SetBPEx(Addr = 0x20000000, Type = 0xFFFFFFF2)  returns 0x00000007 (0000ms, 0283ms total)
T01B8 000:568 JLINK_Go() -- CPU_ReadMem(4 bytes @ 0xE0001000) (0002ms, 0285ms total)
T01B8 000:570 JLINK_IsHalted()  returns FALSE (0001ms, 0286ms total)
T01B8 000:575 JLINK_IsHalted()  returns FALSE (0000ms, 0285ms total)
T01B8 000:578 JLINK_IsHalted()  returns FALSE (0000ms, 0285ms total)
T01B8 000:580 JLINK_IsHalted()  returns FALSE (0000ms, 0285ms total)
T01B8 000:582 JLINK_IsHalted()  returns FALSE (0000ms, 0285ms total)
T01B8 000:584 JLINK_IsHalted()  returns FALSE (0000ms, 0285ms total)
T01B8 000:586 JLINK_IsHalted()  returns FALSE (0000ms, 0285ms total)
T01B8 000:588 JLINK_IsHalted()  returns FALSE (0000ms, 0285ms total)
T01B8 000:590 JLINK_IsHalted()  returns FALSE (0000ms, 0285ms total)
T01B8 000:595 JLINK_IsHalted()  returns FALSE (0000ms, 0285ms total)
T01B8 000:597 JLINK_IsHalted()  returns FALSE (0000ms, 0285ms total)
T01B8 000:599 JLINK_IsHalted()  returns FALSE (0000ms, 0285ms total)
T01B8 000:601 JLINK_IsHalted()  returns FALSE (0000ms, 0285ms total)
T01B8 000:603 JLINK_IsHalted() -- CPU_ReadMem(2 bytes @ 0x20000000)  returns TRUE (0003ms, 0288ms total)
T01B8 000:606 JLINK_ReadReg(R15 (PC))  returns 0x20000000 (0000ms, 0285ms total)
T01B8 000:606 JLINK_ClrBPEx(BPHandle = 0x00000007)  returns 0x00 (0000ms, 0285ms total)
T01B8 000:606 JLINK_ReadReg(R0)  returns 0x00000000 (0000ms, 0285ms total)
T01B8 000:607 JLINK_WriteMem(0x20000164, 0x0400 Bytes, ...) - Data: 28 F9 38 46 DC E7 70 B5 5C 4C 0D 46 06 46 80 21 ... -- CPU_WriteMem(1024 bytes @ 0x20000164)  returns 0x400 (0012ms, 0297ms total)
T01B8 000:619 JLINK_WriteReg(R0, 0x08000C00)  returns 0x00 (0000ms, 0297ms total)
T01B8 000:619 JLINK_WriteReg(R1, 0x00000400)  returns 0x00 (0000ms, 0297ms total)
T01B8 000:619 JLINK_WriteReg(R2, 0x20000164)  returns 0x00 (0000ms, 0297ms total)
T01B8 000:619 JLINK_WriteReg(R3, 0x00000000)  returns 0x00 (0000ms, 0297ms total)
T01B8 000:619 JLINK_WriteReg(R4, 0x00000000)  returns 0x00 (0000ms, 0297ms total)
T01B8 000:619 JLINK_WriteReg(R5, 0x00000000)  returns 0x00 (0000ms, 0297ms total)
T01B8 000:619 JLINK_WriteReg(R6, 0x00000000)  returns 0x00 (0000ms, 0297ms total)
T01B8 000:619 JLINK_WriteReg(R7, 0x00000000)  returns 0x00 (0000ms, 0297ms total)
T01B8 000:619 JLINK_WriteReg(R8, 0x00000000)  returns 0x00 (0000ms, 0297ms total)
T01B8 000:619 JLINK_WriteReg(R9, 0x20000160)  returns 0x00 (0000ms, 0297ms total)
T01B8 000:619 JLINK_WriteReg(R10, 0x00000000)  returns 0x00 (0000ms, 0297ms total)
T01B8 000:619 JLINK_WriteReg(R11, 0x00000000)  returns 0x00 (0000ms, 0297ms total)
T01B8 000:619 JLINK_WriteReg(R12, 0x00000000)  returns 0x00 (0000ms, 0297ms total)
T01B8 000:619 JLINK_WriteReg(R13 (SP), 0x20001000)  returns 0x00 (0000ms, 0297ms total)
T01B8 000:619 JLINK_WriteReg(R14, 0x20000001)  returns 0x00 (0000ms, 0297ms total)
T01B8 000:619 JLINK_WriteReg(R15 (PC), 0x200000F4)  returns 0x00 (0000ms, 0297ms total)
T01B8 000:619 JLINK_WriteReg(XPSR, 0x01000000)  returns 0x00 (0000ms, 0297ms total)
T01B8 000:619 JLINK_WriteReg(MSP, 0x20001000)  returns 0x00 (0000ms, 0297ms total)
T01B8 000:619 JLINK_WriteReg(PSP, 0x20001000)  returns 0x00 (0000ms, 0297ms total)
T01B8 000:619 JLINK_WriteReg(CFBP, 0x00000000)  returns 0x00 (0000ms, 0297ms total)
T01B8 000:619 JLINK_SetBPEx(Addr = 0x20000000, Type = 0xFFFFFFF2)  returns 0x00000008 (0000ms, 0297ms total)
T01B8 000:619 JLINK_Go() -- CPU_ReadMem(4 bytes @ 0xE0001000) (0002ms, 0299ms total)
T01B8 000:621 JLINK_IsHalted()  returns FALSE (0001ms, 0300ms total)
T01B8 000:625 JLINK_IsHalted()  returns FALSE (0000ms, 0299ms total)
T01B8 000:627 JLINK_IsHalted()  returns FALSE (0000ms, 0299ms total)
T01B8 000:629 JLINK_IsHalted()  returns FALSE (0000ms, 0299ms total)
T01B8 000:631 JLINK_IsHalted()  returns FALSE (0000ms, 0299ms total)
T01B8 000:633 JLINK_IsHalted()  returns FALSE (0000ms, 0299ms total)
T01B8 000:635 JLINK_IsHalted()  returns FALSE (0000ms, 0299ms total)
T01B8 000:637 JLINK_IsHalted()  returns FALSE (0000ms, 0299ms total)
T01B8 000:642 JLINK_IsHalted()  returns FALSE (0000ms, 0299ms total)
T01B8 000:644 JLINK_IsHalted()  returns FALSE (0000ms, 0299ms total)
T01B8 000:646 JLINK_IsHalted()  returns FALSE (0000ms, 0299ms total)
T01B8 000:648 JLINK_IsHalted()  returns FALSE (0000ms, 0299ms total)
T01B8 000:650 JLINK_IsHalted()  returns FALSE (0000ms, 0299ms total)
T01B8 000:652 JLINK_IsHalted()  returns FALSE (0000ms, 0299ms total)
T01B8 000:654 JLINK_IsHalted() -- CPU_ReadMem(2 bytes @ 0x20000000)  returns TRUE (0003ms, 0302ms total)
T01B8 000:657 JLINK_ReadReg(R15 (PC))  returns 0x20000000 (0000ms, 0299ms total)
T01B8 000:657 JLINK_ClrBPEx(BPHandle = 0x00000008)  returns 0x00 (0000ms, 0299ms total)
T01B8 000:657 JLINK_ReadReg(R0)  returns 0x00000000 (0000ms, 0299ms total)
T01B8 000:657 JLINK_WriteMem(0x20000164, 0x0400 Bytes, ...) - Data: 20 78 00 28 F9 D1 10 BD 03 49 09 1D 08 80 08 1F ... -- CPU_WriteMem(1024 bytes @ 0x20000164)  returns 0x400 (0013ms, 0312ms total)
T01B8 000:670 JLINK_WriteReg(R0, 0x08001000)  returns 0x00 (0000ms, 0312ms total)
T01B8 000:670 JLINK_WriteReg(R1, 0x00000400)  returns 0x00 (0000ms, 0312ms total)
T01B8 000:670 JLINK_WriteReg(R2, 0x20000164)  returns 0x00 (0000ms, 0312ms total)
T01B8 000:670 JLINK_WriteReg(R3, 0x00000000)  returns 0x00 (0000ms, 0312ms total)
T01B8 000:670 JLINK_WriteReg(R4, 0x00000000)  returns 0x00 (0000ms, 0312ms total)
T01B8 000:670 JLINK_WriteReg(R5, 0x00000000)  returns 0x00 (0000ms, 0312ms total)
T01B8 000:670 JLINK_WriteReg(R6, 0x00000000)  returns 0x00 (0000ms, 0312ms total)
T01B8 000:670 JLINK_WriteReg(R7, 0x00000000)  returns 0x00 (0000ms, 0312ms total)
T01B8 000:670 JLINK_WriteReg(R8, 0x00000000)  returns 0x00 (0000ms, 0312ms total)
T01B8 000:670 JLINK_WriteReg(R9, 0x20000160)  returns 0x00 (0000ms, 0312ms total)
T01B8 000:670 JLINK_WriteReg(R10, 0x00000000)  returns 0x00 (0000ms, 0312ms total)
T01B8 000:670 JLINK_WriteReg(R11, 0x00000000)  returns 0x00 (0000ms, 0312ms total)
T01B8 000:670 JLINK_WriteReg(R12, 0x00000000)  returns 0x00 (0000ms, 0312ms total)
T01B8 000:670 JLINK_WriteReg(R13 (SP), 0x20001000)  returns 0x00 (0000ms, 0312ms total)
T01B8 000:670 JLINK_WriteReg(R14, 0x20000001)  returns 0x00 (0000ms, 0312ms total)
T01B8 000:670 JLINK_WriteReg(R15 (PC), 0x200000F4)  returns 0x00 (0000ms, 0312ms total)
T01B8 000:670 JLINK_WriteReg(XPSR, 0x01000000)  returns 0x00 (0000ms, 0312ms total)
T01B8 000:670 JLINK_WriteReg(MSP, 0x20001000)  returns 0x00 (0000ms, 0312ms total)
T01B8 000:670 JLINK_WriteReg(PSP, 0x20001000)  returns 0x00 (0000ms, 0312ms total)
T01B8 000:670 JLINK_WriteReg(CFBP, 0x00000000)  returns 0x00 (0000ms, 0312ms total)
T01B8 000:670 JLINK_SetBPEx(Addr = 0x20000000, Type = 0xFFFFFFF2)  returns 0x00000009 (0000ms, 0312ms total)
T01B8 000:670 JLINK_Go() -- CPU_ReadMem(4 bytes @ 0xE0001000) (0002ms, 0314ms total)
T01B8 000:672 JLINK_IsHalted()  returns FALSE (0000ms, 0314ms total)
T01B8 000:675 JLINK_IsHalted()  returns FALSE (0000ms, 0314ms total)
T01B8 000:677 JLINK_IsHalted()  returns FALSE (0000ms, 0314ms total)
T01B8 000:679 JLINK_IsHalted()  returns FALSE (0000ms, 0314ms total)
T01B8 000:681 JLINK_IsHalted()  returns FALSE (0000ms, 0314ms total)
T01B8 000:683 JLINK_IsHalted()  returns FALSE (0000ms, 0314ms total)
T01B8 000:685 JLINK_IsHalted()  returns FALSE (0000ms, 0314ms total)
T01B8 000:688 JLINK_IsHalted()  returns FALSE (0000ms, 0314ms total)
T01B8 000:690 JLINK_IsHalted()  returns FALSE (0000ms, 0314ms total)
T01B8 000:692 JLINK_IsHalted()  returns FALSE (0000ms, 0314ms total)
T01B8 000:694 JLINK_IsHalted()  returns FALSE (0000ms, 0314ms total)
T01B8 000:696 JLINK_IsHalted()  returns FALSE (0000ms, 0314ms total)
T01B8 000:698 JLINK_IsHalted()  returns FALSE (0000ms, 0314ms total)
T01B8 000:700 JLINK_IsHalted()  returns FALSE (0000ms, 0314ms total)
T01B8 000:705 JLINK_IsHalted() -- CPU_ReadMem(2 bytes @ 0x20000000)  returns TRUE (0003ms, 0317ms total)
T01B8 000:708 JLINK_ReadReg(R15 (PC))  returns 0x20000000 (0000ms, 0314ms total)
T01B8 000:708 JLINK_ClrBPEx(BPHandle = 0x00000009)  returns 0x00 (0000ms, 0314ms total)
T01B8 000:708 JLINK_ReadReg(R0)  returns 0x00000000 (0000ms, 0314ms total)
T01B8 000:709 JLINK_WriteMem(0x20000164, 0x0400 Bytes, ...) - Data: 12 D3 07 F0 C3 FE 39 46 08 F0 28 F8 29 46 07 F0 ... -- CPU_WriteMem(1024 bytes @ 0x20000164)  returns 0x400 (0012ms, 0326ms total)
T01B8 000:721 JLINK_WriteReg(R0, 0x08001400)  returns 0x00 (0000ms, 0326ms total)
T01B8 000:721 JLINK_WriteReg(R1, 0x00000400)  returns 0x00 (0000ms, 0326ms total)
T01B8 000:721 JLINK_WriteReg(R2, 0x20000164)  returns 0x00 (0000ms, 0326ms total)
T01B8 000:721 JLINK_WriteReg(R3, 0x00000000)  returns 0x00 (0000ms, 0326ms total)
T01B8 000:721 JLINK_WriteReg(R4, 0x00000000)  returns 0x00 (0000ms, 0326ms total)
T01B8 000:721 JLINK_WriteReg(R5, 0x00000000)  returns 0x00 (0000ms, 0326ms total)
T01B8 000:721 JLINK_WriteReg(R6, 0x00000000)  returns 0x00 (0000ms, 0326ms total)
T01B8 000:721 JLINK_WriteReg(R7, 0x00000000)  returns 0x00 (0000ms, 0326ms total)
T01B8 000:721 JLINK_WriteReg(R8, 0x00000000)  returns 0x00 (0000ms, 0326ms total)
T01B8 000:721 JLINK_WriteReg(R9, 0x20000160)  returns 0x00 (0000ms, 0326ms total)
T01B8 000:721 JLINK_WriteReg(R10, 0x00000000)  returns 0x00 (0000ms, 0326ms total)
T01B8 000:721 JLINK_WriteReg(R11, 0x00000000)  returns 0x00 (0000ms, 0326ms total)
T01B8 000:721 JLINK_WriteReg(R12, 0x00000000)  returns 0x00 (0000ms, 0326ms total)
T01B8 000:721 JLINK_WriteReg(R13 (SP), 0x20001000)  returns 0x00 (0000ms, 0326ms total)
T01B8 000:721 JLINK_WriteReg(R14, 0x20000001)  returns 0x00 (0000ms, 0326ms total)
T01B8 000:721 JLINK_WriteReg(R15 (PC), 0x200000F4)  returns 0x00 (0000ms, 0326ms total)
T01B8 000:721 JLINK_WriteReg(XPSR, 0x01000000)  returns 0x00 (0000ms, 0326ms total)
T01B8 000:721 JLINK_WriteReg(MSP, 0x20001000)  returns 0x00 (0000ms, 0326ms total)
T01B8 000:721 JLINK_WriteReg(PSP, 0x20001000)  returns 0x00 (0000ms, 0326ms total)
T01B8 000:721 JLINK_WriteReg(CFBP, 0x00000000)  returns 0x00 (0000ms, 0326ms total)
T01B8 000:721 JLINK_SetBPEx(Addr = 0x20000000, Type = 0xFFFFFFF2)  returns 0x0000000A (0000ms, 0326ms total)
T01B8 000:721 JLINK_Go() -- CPU_ReadMem(4 bytes @ 0xE0001000) (0002ms, 0328ms total)
T01B8 000:723 JLINK_IsHalted()  returns FALSE (0001ms, 0329ms total)
T01B8 000:727 JLINK_IsHalted()  returns FALSE (0000ms, 0328ms total)
T01B8 000:729 JLINK_IsHalted()  returns FALSE (0000ms, 0328ms total)
T01B8 000:731 JLINK_IsHalted()  returns FALSE (0000ms, 0328ms total)
T01B8 000:733 JLINK_IsHalted()  returns FALSE (0000ms, 0328ms total)
T01B8 000:735 JLINK_IsHalted()  returns FALSE (0000ms, 0328ms total)
T01B8 000:739 JLINK_IsHalted()  returns FALSE (0000ms, 0328ms total)
T01B8 000:741 JLINK_IsHalted()  returns FALSE (0000ms, 0328ms total)
T01B8 000:743 JLINK_IsHalted()  returns FALSE (0000ms, 0328ms total)
T01B8 000:745 JLINK_IsHalted()  returns FALSE (0000ms, 0328ms total)
T01B8 000:747 JLINK_IsHalted()  returns FALSE (0000ms, 0328ms total)
T01B8 000:749 JLINK_IsHalted()  returns FALSE (0000ms, 0328ms total)
T01B8 000:753 JLINK_IsHalted()  returns FALSE (0000ms, 0328ms total)
T01B8 000:755 JLINK_IsHalted() -- CPU_ReadMem(2 bytes @ 0x20000000)  returns TRUE (0004ms, 0332ms total)
T01B8 000:759 JLINK_ReadReg(R15 (PC))  returns 0x20000000 (0000ms, 0328ms total)
T01B8 000:759 JLINK_ClrBPEx(BPHandle = 0x0000000A)  returns 0x00 (0000ms, 0328ms total)
T01B8 000:759 JLINK_ReadReg(R0)  returns 0x00000000 (0000ms, 0328ms total)
T01B8 000:759 JLINK_WriteMem(0x20000164, 0x0400 Bytes, ...) - Data: 00 00 20 C2 EC 02 00 20 00 00 FA 43 00 00 FA C3 ... -- CPU_WriteMem(1024 bytes @ 0x20000164)  returns 0x400 (0012ms, 0340ms total)
T01B8 000:771 JLINK_WriteReg(R0, 0x08001800)  returns 0x00 (0000ms, 0340ms total)
T01B8 000:771 JLINK_WriteReg(R1, 0x00000400)  returns 0x00 (0000ms, 0340ms total)
T01B8 000:771 JLINK_WriteReg(R2, 0x20000164)  returns 0x00 (0000ms, 0340ms total)
T01B8 000:771 JLINK_WriteReg(R3, 0x00000000)  returns 0x00 (0000ms, 0340ms total)
T01B8 000:771 JLINK_WriteReg(R4, 0x00000000)  returns 0x00 (0000ms, 0340ms total)
T01B8 000:771 JLINK_WriteReg(R5, 0x00000000)  returns 0x00 (0001ms, 0341ms total)
T01B8 000:772 JLINK_WriteReg(R6, 0x00000000)  returns 0x00 (0000ms, 0341ms total)
T01B8 000:772 JLINK_WriteReg(R7, 0x00000000)  returns 0x00 (0000ms, 0341ms total)
T01B8 000:772 JLINK_WriteReg(R8, 0x00000000)  returns 0x00 (0000ms, 0341ms total)
T01B8 000:772 JLINK_WriteReg(R9, 0x20000160)  returns 0x00 (0000ms, 0341ms total)
T01B8 000:772 JLINK_WriteReg(R10, 0x00000000)  returns 0x00 (0000ms, 0341ms total)
T01B8 000:772 JLINK_WriteReg(R11, 0x00000000)  returns 0x00 (0000ms, 0341ms total)
T01B8 000:772 JLINK_WriteReg(R12, 0x00000000)  returns 0x00 (0000ms, 0341ms total)
T01B8 000:772 JLINK_WriteReg(R13 (SP), 0x20001000)  returns 0x00 (0000ms, 0341ms total)
T01B8 000:772 JLINK_WriteReg(R14, 0x20000001)  returns 0x00 (0000ms, 0341ms total)
T01B8 000:772 JLINK_WriteReg(R15 (PC), 0x200000F4)  returns 0x00 (0000ms, 0341ms total)
T01B8 000:772 JLINK_WriteReg(XPSR, 0x01000000)  returns 0x00 (0000ms, 0341ms total)
T01B8 000:772 JLINK_WriteReg(MSP, 0x20001000)  returns 0x00 (0000ms, 0341ms total)
T01B8 000:772 JLINK_WriteReg(PSP, 0x20001000)  returns 0x00 (0000ms, 0341ms total)
T01B8 000:772 JLINK_WriteReg(CFBP, 0x00000000)  returns 0x00 (0000ms, 0341ms total)
T01B8 000:772 JLINK_SetBPEx(Addr = 0x20000000, Type = 0xFFFFFFF2)  returns 0x0000000B (0000ms, 0341ms total)
T01B8 000:772 JLINK_Go() -- CPU_ReadMem(4 bytes @ 0xE0001000) (0002ms, 0343ms total)
T01B8 000:774 JLINK_IsHalted()  returns FALSE (0000ms, 0343ms total)
T01B8 000:777 JLINK_IsHalted()  returns FALSE (0000ms, 0343ms total)
T01B8 000:779 JLINK_IsHalted()  returns FALSE (0000ms, 0343ms total)
T01B8 000:783 JLINK_IsHalted()  returns FALSE (0000ms, 0343ms total)
T01B8 000:785 JLINK_IsHalted()  returns FALSE (0000ms, 0343ms total)
T01B8 000:787 JLINK_IsHalted()  returns FALSE (0000ms, 0343ms total)
T01B8 000:789 JLINK_IsHalted()  returns FALSE (0000ms, 0343ms total)
T01B8 000:791 JLINK_IsHalted()  returns FALSE (0000ms, 0343ms total)
T01B8 000:793 JLINK_IsHalted()  returns FALSE (0000ms, 0343ms total)
T01B8 000:796 JLINK_IsHalted()  returns FALSE (0000ms, 0343ms total)
T01B8 000:798 JLINK_IsHalted()  returns FALSE (0000ms, 0343ms total)
T01B8 000:800 JLINK_IsHalted()  returns FALSE (0000ms, 0343ms total)
T01B8 000:802 JLINK_IsHalted()  returns FALSE (0000ms, 0343ms total)
T01B8 000:804 JLINK_IsHalted()  returns FALSE (0000ms, 0343ms total)
T01B8 000:806 JLINK_IsHalted() -- CPU_ReadMem(2 bytes @ 0x20000000)  returns TRUE (0003ms, 0346ms total)
T01B8 000:809 JLINK_ReadReg(R15 (PC))  returns 0x20000000 (0000ms, 0343ms total)
T01B8 000:809 JLINK_ClrBPEx(BPHandle = 0x0000000B)  returns 0x00 (0000ms, 0343ms total)
T01B8 000:809 JLINK_ReadReg(R0)  returns 0x00000000 (0000ms, 0343ms total)
T01B8 000:810 JLINK_WriteMem(0x20000164, 0x0400 Bytes, ...) - Data: 07 F0 03 FD 07 F0 24 F9 75 4A 77 4B 06 F0 B2 FB ... -- CPU_WriteMem(1024 bytes @ 0x20000164)  returns 0x400 (0012ms, 0355ms total)
T01B8 000:822 JLINK_WriteReg(R0, 0x08001C00)  returns 0x00 (0000ms, 0355ms total)
T01B8 000:822 JLINK_WriteReg(R1, 0x00000400)  returns 0x00 (0000ms, 0355ms total)
T01B8 000:822 JLINK_WriteReg(R2, 0x20000164)  returns 0x00 (0000ms, 0355ms total)
T01B8 000:822 JLINK_WriteReg(R3, 0x00000000)  returns 0x00 (0000ms, 0355ms total)
T01B8 000:822 JLINK_WriteReg(R4, 0x00000000)  returns 0x00 (0000ms, 0355ms total)
T01B8 000:822 JLINK_WriteReg(R5, 0x00000000)  returns 0x00 (0000ms, 0355ms total)
T01B8 000:822 JLINK_WriteReg(R6, 0x00000000)  returns 0x00 (0000ms, 0355ms total)
T01B8 000:822 JLINK_WriteReg(R7, 0x00000000)  returns 0x00 (0000ms, 0355ms total)
T01B8 000:822 JLINK_WriteReg(R8, 0x00000000)  returns 0x00 (0000ms, 0355ms total)
T01B8 000:822 JLINK_WriteReg(R9, 0x20000160)  returns 0x00 (0000ms, 0355ms total)
T01B8 000:822 JLINK_WriteReg(R10, 0x00000000)  returns 0x00 (0000ms, 0355ms total)
T01B8 000:822 JLINK_WriteReg(R11, 0x00000000)  returns 0x00 (0000ms, 0355ms total)
T01B8 000:822 JLINK_WriteReg(R12, 0x00000000)  returns 0x00 (0000ms, 0355ms total)
T01B8 000:822 JLINK_WriteReg(R13 (SP), 0x20001000)  returns 0x00 (0000ms, 0355ms total)
T01B8 000:822 JLINK_WriteReg(R14, 0x20000001)  returns 0x00 (0000ms, 0355ms total)
T01B8 000:822 JLINK_WriteReg(R15 (PC), 0x200000F4)  returns 0x00 (0000ms, 0355ms total)
T01B8 000:822 JLINK_WriteReg(XPSR, 0x01000000)  returns 0x00 (0000ms, 0355ms total)
T01B8 000:822 JLINK_WriteReg(MSP, 0x20001000)  returns 0x00 (0000ms, 0355ms total)
T01B8 000:822 JLINK_WriteReg(PSP, 0x20001000)  returns 0x00 (0000ms, 0355ms total)
T01B8 000:822 JLINK_WriteReg(CFBP, 0x00000000)  returns 0x00 (0000ms, 0355ms total)
T01B8 000:822 JLINK_SetBPEx(Addr = 0x20000000, Type = 0xFFFFFFF2)  returns 0x0000000C (0000ms, 0355ms total)
T01B8 000:822 JLINK_Go() -- CPU_ReadMem(4 bytes @ 0xE0001000) (0002ms, 0357ms total)
T01B8 000:824 JLINK_IsHalted()  returns FALSE (0001ms, 0358ms total)
T01B8 000:830 JLINK_IsHalted()  returns FALSE (0000ms, 0357ms total)
T01B8 000:832 JLINK_IsHalted()  returns FALSE (0000ms, 0357ms total)
T01B8 000:834 JLINK_IsHalted()  returns FALSE (0000ms, 0357ms total)
T01B8 000:836 JLINK_IsHalted()  returns FALSE (0000ms, 0357ms total)
T01B8 000:838 JLINK_IsHalted()  returns FALSE (0000ms, 0357ms total)
T01B8 000:840 JLINK_IsHalted()  returns FALSE (0000ms, 0357ms total)
T01B8 000:844 JLINK_IsHalted()  returns FALSE (0000ms, 0357ms total)
T01B8 000:846 JLINK_IsHalted()  returns FALSE (0000ms, 0357ms total)
T01B8 000:848 JLINK_IsHalted()  returns FALSE (0000ms, 0357ms total)
T01B8 000:850 JLINK_IsHalted()  returns FALSE (0000ms, 0357ms total)
T01B8 000:852 JLINK_IsHalted()  returns FALSE (0000ms, 0357ms total)
T01B8 000:854 JLINK_IsHalted()  returns FALSE (0000ms, 0357ms total)
T01B8 000:856 JLINK_IsHalted() -- CPU_ReadMem(2 bytes @ 0x20000000)  returns TRUE (0003ms, 0360ms total)
T01B8 000:859 JLINK_ReadReg(R15 (PC))  returns 0x20000000 (0000ms, 0357ms total)
T01B8 000:859 JLINK_ClrBPEx(BPHandle = 0x0000000C)  returns 0x00 (0000ms, 0357ms total)
T01B8 000:859 JLINK_ReadReg(R0)  returns 0x00000000 (0000ms, 0357ms total)
T01B8 000:861 JLINK_WriteMem(0x20000164, 0x0400 Bytes, ...) - Data: AC 81 95 F8 38 00 C0 07 12 D1 FF F7 71 FA FF F7 ... -- CPU_WriteMem(1024 bytes @ 0x20000164)  returns 0x400 (0012ms, 0369ms total)
T01B8 000:873 JLINK_WriteReg(R0, 0x08002000)  returns 0x00 (0000ms, 0369ms total)
T01B8 000:873 JLINK_WriteReg(R1, 0x00000400)  returns 0x00 (0000ms, 0369ms total)
T01B8 000:873 JLINK_WriteReg(R2, 0x20000164)  returns 0x00 (0000ms, 0369ms total)
T01B8 000:873 JLINK_WriteReg(R3, 0x00000000)  returns 0x00 (0000ms, 0369ms total)
T01B8 000:873 JLINK_WriteReg(R4, 0x00000000)  returns 0x00 (0000ms, 0369ms total)
T01B8 000:873 JLINK_WriteReg(R5, 0x00000000)  returns 0x00 (0000ms, 0369ms total)
T01B8 000:873 JLINK_WriteReg(R6, 0x00000000)  returns 0x00 (0000ms, 0369ms total)
T01B8 000:873 JLINK_WriteReg(R7, 0x00000000)  returns 0x00 (0000ms, 0369ms total)
T01B8 000:873 JLINK_WriteReg(R8, 0x00000000)  returns 0x00 (0000ms, 0369ms total)
T01B8 000:873 JLINK_WriteReg(R9, 0x20000160)  returns 0x00 (0000ms, 0369ms total)
T01B8 000:873 JLINK_WriteReg(R10, 0x00000000)  returns 0x00 (0000ms, 0369ms total)
T01B8 000:873 JLINK_WriteReg(R11, 0x00000000)  returns 0x00 (0000ms, 0369ms total)
T01B8 000:873 JLINK_WriteReg(R12, 0x00000000)  returns 0x00 (0000ms, 0369ms total)
T01B8 000:873 JLINK_WriteReg(R13 (SP), 0x20001000)  returns 0x00 (0000ms, 0369ms total)
T01B8 000:873 JLINK_WriteReg(R14, 0x20000001)  returns 0x00 (0000ms, 0369ms total)
T01B8 000:873 JLINK_WriteReg(R15 (PC), 0x200000F4)  returns 0x00 (0000ms, 0369ms total)
T01B8 000:873 JLINK_WriteReg(XPSR, 0x01000000)  returns 0x00 (0001ms, 0370ms total)
T01B8 000:874 JLINK_WriteReg(MSP, 0x20001000)  returns 0x00 (0000ms, 0370ms total)
T01B8 000:874 JLINK_WriteReg(PSP, 0x20001000)  returns 0x00 (0000ms, 0370ms total)
T01B8 000:874 JLINK_WriteReg(CFBP, 0x00000000)  returns 0x00 (0000ms, 0370ms total)
T01B8 000:874 JLINK_SetBPEx(Addr = 0x20000000, Type = 0xFFFFFFF2)  returns 0x0000000D (0000ms, 0370ms total)
T01B8 000:874 JLINK_Go() -- CPU_ReadMem(4 bytes @ 0xE0001000) (0003ms, 0373ms total)
T01B8 000:877 JLINK_IsHalted()  returns FALSE (0000ms, 0373ms total)
T01B8 000:882 JLINK_IsHalted()  returns FALSE (0000ms, 0373ms total)
T01B8 000:884 JLINK_IsHalted()  returns FALSE (0000ms, 0373ms total)
T01B8 000:886 JLINK_IsHalted()  returns FALSE (0000ms, 0373ms total)
T01B8 000:888 JLINK_IsHalted()  returns FALSE (0000ms, 0373ms total)
T01B8 000:892 JLINK_IsHalted()  returns FALSE (0000ms, 0373ms total)
T01B8 000:894 JLINK_IsHalted()  returns FALSE (0000ms, 0373ms total)
T01B8 000:896 JLINK_IsHalted()  returns FALSE (0000ms, 0373ms total)
T01B8 000:898 JLINK_IsHalted()  returns FALSE (0000ms, 0373ms total)
T01B8 000:900 JLINK_IsHalted()  returns FALSE (0000ms, 0373ms total)
T01B8 000:902 JLINK_IsHalted()  returns FALSE (0000ms, 0373ms total)
T01B8 000:904 JLINK_IsHalted()  returns FALSE (0000ms, 0373ms total)
T01B8 000:906 JLINK_IsHalted()  returns FALSE (0000ms, 0373ms total)
T01B8 000:909 JLINK_IsHalted() -- CPU_ReadMem(2 bytes @ 0x20000000)  returns TRUE (0003ms, 0376ms total)
T01B8 000:912 JLINK_ReadReg(R15 (PC))  returns 0x20000000 (0000ms, 0373ms total)
T01B8 000:912 JLINK_ClrBPEx(BPHandle = 0x0000000D)  returns 0x00 (0000ms, 0373ms total)
T01B8 000:912 JLINK_ReadReg(R0)  returns 0x00000000 (0000ms, 0373ms total)
T01B8 000:912 JLINK_WriteMem(0x20000164, 0x0400 Bytes, ...) - Data: DD FA 70 B9 A8 7C 88 B9 A8 7A C0 07 0E D0 60 20 ... -- CPU_WriteMem(1024 bytes @ 0x20000164)  returns 0x400 (0013ms, 0386ms total)
T01B8 000:925 JLINK_WriteReg(R0, 0x08002400)  returns 0x00 (0000ms, 0386ms total)
T01B8 000:925 JLINK_WriteReg(R1, 0x00000400)  returns 0x00 (0000ms, 0386ms total)
T01B8 000:925 JLINK_WriteReg(R2, 0x20000164)  returns 0x00 (0000ms, 0386ms total)
